Freq.	V(vout)
1.00000000000000e+04	(-1.93971365571308e-02dB,-7.30786947943120e+01°)
1.00230523807790e+04	(-1.94791174382316e-02dB,-7.32486425810982e+01°)
1.00461579027840e+04	(-1.95612817297791e-02dB,-7.34189922200136e+01°)
1.00693166885180e+04	(-1.96436271331389e-02dB,-7.35897447129941e+01°)
1.00925288607668e+04	(-1.97261513020641e-02dB,-7.37609010649734e+01°)
1.01157945425990e+04	(-1.98088518421557e-02dB,-7.39324622838989e+01°)
1.01391138573668e+04	(-1.98917263105144e-02dB,-7.41044293807444e+01°)
1.01624869287070e+04	(-1.99747722150257e-02dB,-7.42768033695271e+01°)
1.01859138805412e+04	(-2.00579870139558e-02dB,-7.44495852673211e+01°)
1.02093948370768e+04	(-2.01413681154616e-02dB,-7.46227760942734e+01°)
1.02329299228075e+04	(-2.02249128769432e-02dB,-7.47963768736186e+01°)
1.02565192625141e+04	(-2.03086186047170e-02dB,-7.49703886316945e+01°)
1.02801629812647e+04	(-2.03924825532665e-02dB,-7.51448123979578e+01°)
1.03038612044162e+04	(-2.04765019249072e-02dB,-7.53196492049995e+01°)
1.03276140576140e+04	(-2.05606738691604e-02dB,-7.54949000885606e+01°)
1.03514216667934e+04	(-2.06449954822394e-02dB,-7.56705660875485e+01°)
1.03752841581801e+04	(-2.07294638066247e-02dB,-7.58466482440526e+01°)
1.03992016582906e+04	(-2.08140758302789e-02dB,-7.60231476033609e+01°)
1.04231742939330e+04	(-2.08988284864406e-02dB,-7.62000652139759e+01°)
1.04472021922080e+04	(-2.09837186528198e-02dB,-7.63774021276316e+01°)
1.04712854805090e+04	(-2.10687431512515e-02dB,-7.65551593993098e+01°)
1.04954242865232e+04	(-2.11538987470595e-02dB,-7.67333380872570e+01°)
1.05196187382322e+04	(-2.12391821485453e-02dB,-7.69119392530015e+01°)
1.05438689639126e+04	(-2.13245900064498e-02dB,-7.70909639613702e+01°)
1.05681750921366e+04	(-2.14101189134225e-02dB,-7.72704132805064e+01°)
1.05925372517729e+04	(-2.14957654035052e-02dB,-7.74502882818862e+01°)
1.06169555719872e+04	(-2.15815259515650e-02dB,-7.76305900403374e+01°)
1.06414301822431e+04	(-2.16673969727544e-02dB,-7.78113196340559e+01°)
1.06659612123026e+04	(-2.17533748219538e-02dB,-7.79924781446248e+01°)
1.06905487922266e+04	(-2.18394557933429e-02dB,-7.81740666570310e+01°)
1.07151930523760e+04	(-2.19256361196942e-02dB,-7.83560862596850e+01°)
1.07398941234124e+04	(-2.20119119719686e-02dB,-7.85385380444384e+01°)
1.07646521362983e+04	(-2.20982794587334e-02dB,-7.87214231066017e+01°)
1.07894672222983e+04	(-2.21847346255268e-02dB,-7.89047425449648e+01°)
1.08143395129794e+04	(-2.22712734545796e-02dB,-7.90884974618146e+01°)
1.08392691402120e+04	(-2.23578918639446e-02dB,-7.92726889629534e+01°)
1.08642562361706e+04	(-2.24445857072647e-02dB,-7.94573181577204e+01°)
1.08893009333343e+04	(-2.25313507729893e-02dB,-7.96423861590088e+01°)
1.09144033644875e+04	(-2.26181827839845e-02dB,-7.98278940832862e+01°)
1.09395636627209e+04	(-2.27050773969846e-02dB,-8.00138430506144e+01°)
1.09647819614318e+04	(-2.27920302020287e-02dB,-8.02002341846697e+01°)
1.09900583943252e+04	(-2.28790367218814e-02dB,-8.03870686127617e+01°)
1.10153930954141e+04	(-2.29660924116792e-02dB,-8.05743474658551e+01°)
1.10407861990207e+04	(-2.30531926581528e-02dB,-8.07620718785889e+01°)
1.10662378397766e+04	(-2.31403327793562e-02dB,-8.09502429892977e+01°)
1.10917481526240e+04	(-2.32275080238875e-02dB,-8.11388619400324e+01°)
1.11173172728159e+04	(-2.33147135706069e-02dB,-8.13279298765810e+01°)
1.11429453359173e+04	(-2.34019445279428e-02dB,-8.15174479484902e+01°)
1.11686324778056e+04	(-2.34891959334662e-02dB,-8.17074173090862e+01°)
1.11943788346715e+04	(-2.35764627533264e-02dB,-8.18978391154968e+01°)
1.12201845430196e+04	(-2.36637398817849e-02dB,-8.20887145286729e+01°)
1.12460497396692e+04	(-2.37510221406743e-02dB,-8.22800447134105e+01°)
1.12719745617551e+04	(-2.38383042788939e-02dB,-8.24718308383729e+01°)
1.12979591467279e+04	(-2.39255809719295e-02dB,-8.26640740761131e+01°)
1.13240036323555e+04	(-2.40128468213024e-02dB,-8.28567756030962e+01°)
1.13501081567231e+04	(-2.41000963542065e-02dB,-8.30499365997222e+01°)
1.13762728582343e+04	(-2.41873240227869e-02dB,-8.32435582503493e+01°)
1.14024978756117e+04	(-2.42745242039134e-02dB,-8.34376417433167e+01°)
1.14287833478977e+04	(-2.43616911984794e-02dB,-8.36321882709682e+01°)
1.14551294144553e+04	(-2.44488192311370e-02dB,-8.38271990296754e+01°)
1.14815362149688e+04	(-2.45359024495628e-02dB,-8.40226752198624e+01°)
1.15080038894443e+04	(-2.46229349242642e-02dB,-8.42186180460285e+01°)
1.15345325782109e+04	(-2.47099106479024e-02dB,-8.44150287167738e+01°)
1.15611224219210e+04	(-2.47968235349490e-02dB,-8.46119084448228e+01°)
1.15877735615512e+04	(-2.48836674212386e-02dB,-8.48092584470494e+01°)
1.16144861384034e+04	(-2.49704360634621e-02dB,-8.50070799445015e+01°)
1.16412602941049e+04	(-2.50571231387126e-02dB,-8.52053741624266e+01°)
1.16680961706096e+04	(-2.51437222442555e-02dB,-8.54041423302968e+01°)
1.16949939101987e+04	(-2.52302268967511e-02dB,-8.56033856818342e+01°)
1.17219536554813e+04	(-2.53166305321518e-02dB,-8.58031054550375e+01°)
1.17489755493953e+04	(-2.54029265051638e-02dB,-8.60033028922070e+01°)
1.17760597352080e+04	(-2.54891080888127e-02dB,-8.62039792399716e+01°)
1.18032063565173e+04	(-2.55751684741210e-02dB,-8.64051357493147e+01°)
1.18304155572516e+04	(-2.56611007696661e-02dB,-8.66067736756017e+01°)
1.18576874816716e+04	(-2.57468980012450e-02dB,-8.68088942786065e+01°)
1.18850222743701e+04	(-2.58325531114413e-02dB,-8.70114988225383e+01°)
1.19124200802737e+04	(-2.59180589593534e-02dB,-8.72145885760701e+01°)
1.19398810446427e+04	(-2.60034083201568e-02dB,-8.74181648123652e+01°)
1.19674053130724e+04	(-2.60885938848174e-02dB,-8.76222288091063e+01°)
1.19949930314937e+04	(-2.61736082597265e-02dB,-8.78267818485227e+01°)
1.20226443461741e+04	(-2.62584439663873e-02dB,-8.80318252174193e+01°)
1.20503594037179e+04	(-2.63430934411028e-02dB,-8.82373602072051e+01°)
1.20781383510678e+04	(-2.64275490347313e-02dB,-8.84433881139222e+01°)
1.21059813355048e+04	(-2.65118030122511e-02dB,-8.86499102382747e+01°)
1.21338885046497e+04	(-2.65958475526595e-02dB,-8.88569278856588e+01°)
1.21618600064636e+04	(-2.66796747485759e-02dB,-8.90644423661918e+01°)
1.21898959892486e+04	(-2.67632766060497e-02dB,-8.92724549947423e+01°)
1.22179966016487e+04	(-2.68466450443053e-02dB,-8.94809670909607e+01°)
1.22461619926504e+04	(-2.69297718955054e-02dB,-8.96899799793092e+01°)
1.22743923115840e+04	(-2.70126489045124e-02dB,-8.98994949890929e+01°)
1.23026877081238e+04	(-2.70952677287839e-02dB,-9.01095134544907e+01°)
1.23310483322890e+04	(-2.71776199380614e-02dB,-9.03200367145866e+01°)
1.23594743344450e+04	(-2.72596970142546e-02dB,-9.05310661134010e+01°)
1.23879658653036e+04	(-2.73414903512949e-02dB,-9.07426029999232e+01°)
1.24165230759241e+04	(-2.74229912549944e-02dB,-9.09546487281425e+01°)
1.24451461177138e+04	(-2.75041909428979e-02dB,-9.11672046570815e+01°)
1.24738351424294e+04	(-2.75850805441239e-02dB,-9.13802721508282e+01°)
1.25025903021771e+04	(-2.76656510993590e-02dB,-9.15938525785688e+01°)
1.25314117494141e+04	(-2.77458935607823e-02dB,-9.18079473146218e+01°)
1.25602996369487e+04	(-2.78257987919049e-02dB,-9.20225577384701e+01°)
1.25892541179416e+04	(-2.79053575675833e-02dB,-9.22376852347962e+01°)
1.26182753459066e+04	(-2.79845605740284e-02dB,-9.24533311935151e+01°)
1.26473634747114e+04	(-2.80633984087501e-02dB,-9.26694970098091e+01°)
1.26765186585784e+04	(-2.81418615806247e-02dB,-9.28861840841626e+01°)
1.27057410520853e+04	(-2.82199405098179e-02dB,-9.31033938223965e+01°)
1.27350308101665e+04	(-2.82976255279723e-02dB,-9.33211276357042e+01°)
1.27643880881134e+04	(-2.83749068781634e-02dB,-9.35393869406862e+01°)
1.27938130415752e+04	(-2.84517747150784e-02dB,-9.37581731593864e+01°)
1.28233058265601e+04	(-2.85282191050744e-02dB,-9.39774877193281e+01°)
1.28528665994361e+04	(-2.86042300263579e-02dB,-9.41973320535505e+01°)
1.28824955169313e+04	(-2.86797973691189e-02dB,-9.44177076006446e+01°)
1.29121927361353e+04	(-2.87549109356544e-02dB,-9.46386158047916e+01°)
1.29419584144998e+04	(-2.88295604407509e-02dB,-9.48600581157988e+01°)
1.29717927098395e+04	(-2.89037355116890e-02dB,-9.50820359891379e+01°)
1.30016957803328e+04	(-2.89774256886564e-02dB,-9.53045508859829e+01°)
1.30316677845229e+04	(-2.90506204249639e-02dB,-9.55276042732478e+01°)
1.30617088813183e+04	(-2.91233090873388e-02dB,-9.57511976236255e+01°)
1.30918192299940e+04	(-2.91954809562845e-02dB,-9.59753324156263e+01°)
1.31219989901919e+04	(-2.92671252264557e-02dB,-9.62000101336175e+01°)
1.31522483219223e+04	(-2.93382310069700e-02dB,-9.64252322678623e+01°)
1.31825673855640e+04	(-2.94087873218136e-02dB,-9.66510003145598e+01°)
1.32129563418657e+04	(-2.94787831104145e-02dB,-9.68773157758846e+01°)
1.32434153519466e+04	(-2.95482072279917e-02dB,-9.71041801600279e+01°)
1.32739445772973e+04	(-2.96170484460632e-02dB,-9.73315949812376e+01°)
1.33045441797808e+04	(-2.96852954529610e-02dB,-9.75595617598592e+01°)
1.33352143216331e+04	(-2.97529368544421e-02dB,-9.77880820223777e+01°)
1.33659551654643e+04	(-2.98199611742846e-02dB,-9.80171573014584e+01°)
1.33967668742593e+04	(-2.98863568547972e-02dB,-9.82467891359893e+01°)
1.34276496113785e+04	(-2.99521122575760e-02dB,-9.84769790711235e+01°)
1.34586035405594e+04	(-3.00172156641876e-02dB,-9.87077286583212e+01°)
1.34896288259164e+04	(-3.00816552767847e-02dB,-9.89390394553931e+01°)
1.35207256319427e+04	(-3.01454192189896e-02dB,-9.91709130265434e+01°)
1.35518941235103e+04	(-3.02084955366169e-02dB,-9.94033509424130e+01°)
1.35831344658714e+04	(-3.02708721984479e-02dB,-9.96363547801239e+01°)
1.36144468246594e+04	(-3.03325370971667e-02dB,-9.98699261233231e+01°)
1.36458313658891e+04	(-3.03934780502565e-02dB,-1.00104066562227e+02°)
1.36772882559584e+04	(-3.04536828008743e-02dB,-1.00338777693666e+02°)
1.37088176616484e+04	(-3.05131390188172e-02dB,-1.00574061121130e+02°)
1.37404197501250e+04	(-3.05718343016069e-02dB,-1.00809918454814e+02°)
1.37720946889394e+04	(-3.06297561754946e-02dB,-1.01046351311665e+02°)
1.38038426460287e+04	(-3.06868920964865e-02dB,-1.01283361315423e+02°)
1.38356637897177e+04	(-3.07432294515416e-02dB,-1.01520950096674e+02°)
1.38675582887188e+04	(-3.07987555598589e-02dB,-1.01759119292894e+02°)
1.38995263121334e+04	(-3.08534576737291e-02dB,-1.01997870548494e+02°)
1.39315680294529e+04	(-3.09073229802070e-02dB,-1.02237205514872e+02°)
1.39636836105593e+04	(-3.09603386021342e-02dB,-1.02477125850454e+02°)
1.39958732257261e+04	(-3.10124915995689e-02dB,-1.02717633220752e+02°)
1.40281370456195e+04	(-3.10637689711811e-02dB,-1.02958729298400e+02°)
1.40604752412990e+04	(-3.11141576556735e-02dB,-1.03200415763214e+02°)
1.40928879842186e+04	(-3.11636445332411e-02dB,-1.03442694302234e+02°)
1.41253754462274e+04	(-3.12122164271092e-02dB,-1.03685566609775e+02°)
1.41579377995707e+04	(-3.12598601051004e-02dB,-1.03929034387478e+02°)
1.41905752168908e+04	(-3.13065622812745e-02dB,-1.04173099344360e+02°)
1.42232878712281e+04	(-3.13523096175827e-02dB,-1.04417763196861e+02°)
1.42560759360218e+04	(-3.13970887255584e-02dB,-1.04663027668899e+02°)
1.42889395851109e+04	(-3.14408861681306e-02dB,-1.04908894491918e+02°)
1.43218789927353e+04	(-3.14836884614305e-02dB,-1.05155365404940e+02°)
1.43548943335364e+04	(-3.15254820766451e-02dB,-1.05402442154618e+02°)
1.43879857825583e+04	(-3.15662534419563e-02dB,-1.05650126495284e+02°)
1.44211535152486e+04	(-3.16059889445834e-02dB,-1.05898420189007e+02°)
1.44543977074592e+04	(-3.16446749326278e-02dB,-1.06147325005640e+02°)
1.44877185354475e+04	(-3.16822977174003e-02dB,-1.06396842722876e+02°)
1.45211161758773e+04	(-3.17188435753922e-02dB,-1.06646975126300e+02°)
1.45545908058195e+04	(-3.17542987505370e-02dB,-1.06897724009442e+02°)
1.45881426027534e+04	(-3.17886494564459e-02dB,-1.07149091173834e+02°)
1.46217717445671e+04	(-3.18218818788182e-02dB,-1.07401078429057e+02°)
1.46554784095590e+04	(-3.18539821776509e-02dB,-1.07653687592805e+02°)
1.46892627764385e+04	(-3.18849364897723e-02dB,-1.07906920490930e+02°)
1.47231250243271e+04	(-3.19147309313424e-02dB,-1.08160778957504e+02°)
1.47570653327588e+04	(-3.19433516003276e-02dB,-1.08415264834871e+02°)
1.47910838816819e+04	(-3.19707845792514e-02dB,-1.08670379973703e+02°)
1.48251808514594e+04	(-3.19970159377562e-02dB,-1.08926126233057e+02°)
1.48593564228699e+04	(-3.20220317353698e-02dB,-1.09182505480428e+02°)
1.48936107771090e+04	(-3.20458180243059e-02dB,-1.09439519591810e+02°)
1.49279440957898e+04	(-3.20683608524320e-02dB,-1.09697170451750e+02°)
1.49623565609442e+04	(-3.20896462659847e-02dB,-1.09955459953404e+02°)
1.49968483550236e+04	(-3.21096603128499e-02dB,-1.10214389998596e+02°)
1.50314196609001e+04	(-3.21283890453526e-02dB,-1.10473962497876e+02°)
1.50660706618673e+04	(-3.21458185237067e-02dB,-1.10734179370576e+02°)
1.51008015416413e+04	(-3.21619348188449e-02dB,-1.10995042544869e+02°)
1.51356124843619e+04	(-3.21767240160205e-02dB,-1.11256553957829e+02°)
1.51705036745932e+04	(-3.21901722179847e-02dB,-1.11518715555485e+02°)
1.52054752973248e+04	(-3.22022655484096e-02dB,-1.11781529292886e+02°)
1.52405275379728e+04	(-3.22129901554298e-02dB,-1.12044997134155e+02°)
1.52756605823806e+04	(-3.22223322151328e-02dB,-1.12309121052551e+02°)
1.53108746168202e+04	(-3.22302779352802e-02dB,-1.12573903030529e+02°)
1.53461698279928e+04	(-3.22368135588567e-02dB,-1.12839345059797e+02°)
1.53815464030302e+04	(-3.22419253680353e-02dB,-1.13105449141379e+02°)
1.54170045294954e+04	(-3.22455996878826e-02dB,-1.13372217285675e+02°)
1.54525443953840e+04	(-3.22478228903737e-02dB,-1.13639651512521e+02°)
1.54881661891247e+04	(-3.22485813982873e-02dB,-1.13907753851248e+02°)
1.55238700995807e+04	(-3.22478616894189e-02dB,-1.14176526340747e+02°)
1.55596563160506e+04	(-3.22456503006908e-02dB,-1.14445971029527e+02°)
1.55955250282694e+04	(-3.22419338322876e-02dB,-1.14716089975778e+02°)
1.56314764264094e+04	(-3.22366989521025e-02dB,-1.14986885247432e+02°)
1.56675107010813e+04	(-3.22299324000665e-02dB,-1.15258358922226e+02°)
1.57036280433354e+04	(-3.22216209926070e-02dB,-1.15530513087763e+02°)
1.57398286446620e+04	(-3.22117516272319e-02dB,-1.15803349841572e+02°)
1.57761126969933e+04	(-3.22003112871797e-02dB,-1.16076871291178e+02°)
1.58124803927037e+04	(-3.21872870460378e-02dB,-1.16351079554155e+02°)
1.58489319246110e+04	(-3.21726660726564e-02dB,-1.16625976758195e+02°)
1.58854674859776e+04	(-3.21564356359431e-02dB,-1.16901565041171e+02°)
1.59220872705115e+04	(-3.21385831098322e-02dB,-1.17177846551196e+02°)
1.59587914723672e+04	(-3.21190959783737e-02dB,-1.17454823446691e+02°)
1.59955802861465e+04	(-3.20979618408269e-02dB,-1.17732497896445e+02°)
1.60324539069002e+04	(-3.20751684168543e-02dB,-1.18010872079682e+02°)
1.60694125301286e+04	(-3.20507035518524e-02dB,-1.18289948186118e+02°)
1.61064563517825e+04	(-3.20245552223005e-02dB,-1.18569728416036e+02°)
1.61435855682647e+04	(-3.19967115413012e-02dB,-1.18850214980338e+02°)
1.61808003764305e+04	(-3.19671607640203e-02dB,-1.19131410100618e+02°)
1.62181009735891e+04	(-3.19358912933322e-02dB,-1.19413316009221e+02°)
1.62554875575047e+04	(-3.19028916856912e-02dB,-1.19695934949311e+02°)
1.62929603263970e+04	(-3.18681506567684e-02dB,-1.19979269174931e+02°)
1.63305194789432e+04	(-3.18316570874302e-02dB,-1.20263320951073e+02°)
1.63681652142779e+04	(-3.17934000297372e-02dB,-1.20548092553737e+02°)
1.64058977319952e+04	(-3.17533687129541e-02dB,-1.20833586270000e+02°)
1.64437172321491e+04	(-3.17115525497148e-02dB,-1.21119804398079e+02°)
1.64816239152549e+04	(-3.16679411423923e-02dB,-1.21406749247394e+02°)
1.65196179822900e+04	(-3.16225242892156e-02dB,-1.21694423138637e+02°)
1.65576996346951e+04	(-3.15752919909084e-02dB,-1.21982828403833e+02°)
1.65958690743754e+04	(-3.15262344570179e-02dB,-1.22271967386406e+02°)
1.66341265037015e+04	(-3.14753421126178e-02dB,-1.22561842441246e+02°)
1.66724721255104e+04	(-3.14226056049477e-02dB,-1.22852455934770e+02°)
1.67109061431069e+04	(-3.13680158102311e-02dB,-1.23143810244990e+02°)
1.67494287602642e+04	(-3.13115638404872e-02dB,-1.23435907761577e+02°)
1.67880401812254e+04	(-3.12532410504648e-02dB,-1.23728750885925e+02°)
1.68267406107045e+04	(-3.11930390447018e-02dB,-1.24022342031218e+02°)
1.68655302538872e+04	(-3.11309496846732e-02dB,-1.24316683622493e+02°)
1.69044093164324e+04	(-3.10669650959404e-02dB,-1.24611778096704e+02°)
1.69433780044731e+04	(-3.10010776754770e-02dB,-1.24907627902791e+02°)
1.69824365246172e+04	(-3.09332800989764e-02dB,-1.25204235501739e+02°)
1.70215850839493e+04	(-3.08635653284411e-02dB,-1.25501603366647e+02°)
1.70608238900310e+04	(-3.07919266196496e-02dB,-1.25799733982789e+02°)
1.71001531509027e+04	(-3.07183575297775e-02dB,-1.26098629847682e+02°)
1.71395730750840e+04	(-3.06428519251399e-02dB,-1.26398293471148e+02°)
1.71790838715757e+04	(-3.05654039889717e-02dB,-1.26698727375380e+02°)
1.72186857498599e+04	(-3.04860082293379e-02dB,-1.26999934095003e+02°)
1.72583789199018e+04	(-3.04046594870561e-02dB,-1.27301916177141e+02°)
1.72981635921508e+04	(-3.03213529437954e-02dB,-1.27604676181479e+02°)
1.73380399775412e+04	(-3.02360841301238e-02dB,-1.27908216680330e+02°)
1.73780082874935e+04	(-3.01488489337921e-02dB,-1.28212540258693e+02°)
1.74180687339159e+04	(-3.00596436079440e-02dB,-1.28517649514321e+02°)
1.74582215292048e+04	(-2.99684647795108e-02dB,-1.28823547057781e+02°)
1.74984668862463e+04	(-2.98753094576612e-02dB,-1.29130235512520e+02°)
1.75388050184174e+04	(-2.97801750422570e-02dB,-1.29437717514926e+02°)
1.75792361395867e+04	(-2.96830593325022e-02dB,-1.29745995714390e+02°)
1.76197604641161e+04	(-2.95839605355402e-02dB,-1.30055072773369e+02°)
1.76603782068614e+04	(-2.94828772751818e-02dB,-1.30364951367450e+02°)
1.77010895831740e+04	(-2.93798086007746e-02dB,-1.30675634185408e+02°)
1.77418948089014e+04	(-2.92747539959790e-02dB,-1.30987123929271e+02°)
1.77827941003890e+04	(-2.91677133877486e-02dB,-1.31299423314379e+02°)
1.78237876744807e+04	(-2.90586871553237e-02dB,-1.31612535069447e+02°)
1.78648757485203e+04	(-2.89476761392358e-02dB,-1.31926461936625e+02°)
1.79060585403527e+04	(-2.88346816504812e-02dB,-1.32241206671557e+02°)
1.79473362683250e+04	(-2.87197054797902e-02dB,-1.32556772043445e+02°)
1.79887091512876e+04	(-2.86027499066379e-02dB,-1.32873160835103e+02°)
1.80301774085955e+04	(-2.84838177086990e-02dB,-1.33190375843023e+02°)
1.80717412601090e+04	(-2.83629121711670e-02dB,-1.33508419877430e+02°)
1.81134009261958e+04	(-2.82400370962077e-02dB,-1.33827295762341e+02°)
1.81551566277311e+04	(-2.81151968122300e-02dB,-1.34147006335627e+02°)
1.81970085860996e+04	(-2.79883961835883e-02dB,-1.34467554449066e+02°)
1.82389570231961e+04	(-2.78596406200008e-02dB,-1.34788942968406e+02°)
1.82810021614272e+04	(-2.77289360861140e-02dB,-1.35111174773418e+02°)
1.83231442237119e+04	(-2.75962891112092e-02dB,-1.35434252757955e+02°)
1.83653834334832e+04	(-2.74617067987727e-02dB,-1.35758179830009e+02°)
1.84077200146893e+04	(-2.73251968362998e-02dB,-1.36082958911768e+02°)
1.84501541917945e+04	(-2.71867675047731e-02dB,-1.36408592939669e+02°)
1.84926861897805e+04	(-2.70464276887230e-02dB,-1.36735084864455e+02°)
1.85353162341479e+04	(-2.69041868857838e-02dB,-1.37062437651231e+02°)
1.85780445509167e+04	(-2.67600552165035e-02dB,-1.37390654279516e+02°)
1.86208713666284e+04	(-2.66140434343045e-02dB,-1.37719737743299e+02°)
1.86637969083464e+04	(-2.64661629350100e-02dB,-1.38049691051093e+02°)
1.87068214036577e+04	(-2.63164257670451e-02dB,-1.38380517225987e+02°)
1.87499450806739e+04	(-2.61648446410032e-02dB,-1.38712219305699e+02°)
1.87931681680324e+04	(-2.60114329395344e-02dB,-1.39044800342628e+02°)
1.88364908948977e+04	(-2.58562047273394e-02dB,-1.39378263403906e+02°)
1.88799134909627e+04	(-2.56991747608099e-02dB,-1.39712611571451e+02°)
1.89234361864495e+04	(-2.55403584980053e-02dB,-1.40047847942015e+02°)
1.89670592121112e+04	(-2.53797721083710e-02dB,-1.40383975627237e+02°)
1.90107827992327e+04	(-2.52174324826170e-02dB,-1.40720997753690e+02°)
1.90546071796322e+04	(-2.50533572424378e-02dB,-1.41058917462934e+02°)
1.90985325856621e+04	(-2.48875647502780e-02dB,-1.41397737911561e+02°)
1.91425592502106e+04	(-2.47200741190881e-02dB,-1.41737462271249e+02°)
1.91866874067026e+04	(-2.45509052219487e-02dB,-1.42078093728804e+02°)
1.92309172891013e+04	(-2.43800787017828e-02dB,-1.42419635486209e+02°)
